T4580 000:046.589   SEGGER J-Link V9.32 Log File
T4580 000:046.696   DLL Compiled: Apr  1 2026 12:26:32
T4580 000:046.723   Logging started @ 2026-05-01 04:41
T4580 000:046.764   Process: D:\Keil_v5\UV4\UV4.exe
T4580 000:046.788 - 46.780ms 
T4580 000:046.796 JLINK_SetWarnOutHandler(...)
T4580 000:046.800 - 0.005ms 
T4580 000:046.804 JLINK_OpenEx(...)
T4580 000:050.973   Firmware: J-Link V9 compiled May  7 2021 16:26:12
T4580 000:051.431   Firmware: J-Link V9 compiled May  7 2021 16:26:12
T4580 000:051.532   Decompressing FW timestamp took 85 us
T4580 000:059.038   Hardware: V9.40
T4580 000:059.052   S/N: 69402046
T4580 000:059.057   OEM: SEGGER
T4580 000:059.062   Feature(s): RDI, GDB, FlashDL, FlashBP, JFlash
T4580 000:059.551   Bootloader: (FW returned invalid version)
T4580 000:060.342   TELNET listener socket opened on port 19021
T4580 000:060.447   WEBSRV WEBSRV_Init(): Starting webserver thread(s)
T4580 000:060.579   WEBSRV Webserver running on local port 19080
T4580 000:060.663   Looking for J-Link GUI Server exe at: D:\Keil_v5\ARM\Segger\JLinkGUIServer.exe
T4580 000:060.694   Looking for J-Link GUI Server exe at: D:\Program Files\SEGGER\JLink_V932\JLinkGUIServer.exe
T4580 000:060.716   Forking J-Link GUI Server: D:\Program Files\SEGGER\JLink_V932\JLinkGUIServer.exe
T4580 000:062.815   J-Link GUI Server info: "J-Link GUI server V9.32 "
T4580 000:063.066 - 16.251ms returns "O.K."
T4580 000:063.087 JLINK_SetErrorOutHandler(...)
T4580 000:063.091 - 0.004ms 
T4580 000:063.126 JLINK_ExecCommand("ProjectFile = "D:\Program Files\STMicroelectronics\STM32Cube\STM32CubeMX\Project\Thermal_Imaging_0501\MDK-ARM\JLinkSettings.ini"", ...). 
T4580 000:074.915   Ref file found at: D:\Keil_v5\ARM\Segger\JLinkDevices.ref
T4580 000:074.990   REF file references invalid XML file: D:\Program Files\SEGGER\JLink_V932\JLinkDevices.xml
T4580 000:076.075 - 12.948ms returns 0x00
T4580 000:076.126 JLINK_ExecCommand("Device = STM32F407ZETx", ...). 
T4580 000:076.387   Flash bank @ 0x08000000: SFL: Parsing sectorization info from ELF file
T4580 000:076.395     FlashDevice.SectorInfo[0]: .SectorSize = 0x00004000, .SectorStartAddr = 0x08000000
T4580 000:076.400     FlashDevice.SectorInfo[1]: .SectorSize = 0x00010000, .SectorStartAddr = 0x08010000
T4580 000:076.405     FlashDevice.SectorInfo[2]: .SectorSize = 0x000D0000, .SectorStartAddr = 0x08020000
T4580 000:076.411   FlashBank @0x08000000: Sectorization info from SFL ELF file ignored because sectorization override from DLL / XML file is active.
T4580 000:076.617   Flash bank @ 0x08000000: SFL: Parsing sectorization info from ELF file
T4580 000:076.625     FlashDevice.SectorInfo[0]: .SectorSize = 0x00004000, .SectorStartAddr = 0x08000000
T4580 000:076.630     FlashDevice.SectorInfo[1]: .SectorSize = 0x00010000, .SectorStartAddr = 0x08010000
T4580 000:076.635     FlashDevice.SectorInfo[2]: .SectorSize = 0x000D0000, .SectorStartAddr = 0x08020000
T4580 000:076.640   FlashBank @0x1FFF7800: Sectorization info from SFL ELF file ignored because sectorization override from DLL / XML file is active.
T4580 000:077.489   Device "STM32F407ZE" selected.
T4580 000:077.716 - 1.590ms returns 0x00
T4580 000:077.735   ERROR: Unknown command
T4580 000:077.743 JLINK_GetHardwareVersion()
T4580 000:077.748 - 0.003ms returns 94000
T4580 000:077.752 JLINK_GetDLLVersion()
T4580 000:077.756 - 0.003ms returns 93200
T4580 000:077.760 JLINK_GetOEMString(...)
T4580 000:077.765 JLINK_GetFirmwareString(...)
T4580 000:077.768 - 0.003ms 
T4580 000:078.858 JLINK_GetDLLVersion()
T4580 000:078.868 - 0.009ms returns 93200
T4580 000:078.872 JLINK_GetCompileDateTime()
T4580 000:078.876 - 0.003ms 
T4580 000:079.125 JLINK_GetFirmwareString(...)
T4580 000:079.133 - 0.007ms 
T4580 000:079.409 JLINK_GetHardwareVersion()
T4580 000:079.415 - 0.006ms returns 94000
T4580 000:079.653 JLINK_GetSN()
T4580 000:079.659 - 0.006ms returns 69402046
T4580 000:079.903 JLINK_GetOEMString(...)
T4580 000:081.529 JLINK_TIF_Select(JLINKARM_TIF_SWD)
T4580 000:082.082 - 0.556ms returns 0x00
T4580 000:082.094 JLINK_HasError()
T4580 000:082.146 JLINK_SetSpeed(5000)
T4580 000:082.194 - 0.049ms 
T4580 000:082.200 JLINK_GetId()
T4580 000:082.601   InitTarget() start
T4580 000:082.617    J-Link Script File: Executing InitTarget()
T4580 000:082.947   SWD selected. Executing JTAG -> SWD switching sequence.
T4580 000:084.789   DAP initialized successfully.
T4580 000:088.992   InitTarget() end - Took 6.15ms
T4580 000:089.684   Found SW-DP with ID 0x2BA01477
T4580 000:091.837   DPIDR: 0x2BA01477
T4580 000:092.020   CoreSight SoC-400 or earlier
T4580 000:092.211   Scanning AP map to find all available APs
T4580 000:092.938   AP[1]: Stopped AP scan as end of AP map has been reached
T4580 000:093.136   AP[0]: AHB-AP (IDR: 0x24770011, ADDR: 0x00000000)
T4580 000:093.298   Iterating through AP map to find AHB-AP to use
T4580 000:094.292   AP[0]: Core found
T4580 000:094.461   AP[0]: AHB-AP ROM base: 0xE00FF000
T4580 000:095.127   CPUID register: 0x410FC241. Implementer code: 0x41 (ARM)
T4580 000:095.304   Found Cortex-M4 r0p1, Little endian.
T4580 000:095.543   -- Max. mem block: 0x00010E60
T4580 000:095.903   CPU_ReadMem(4 bytes @ 0xE000EDF0)
T4580 000:096.159   CPU_ReadMem(4 bytes @ 0xE0002000)
T4580 000:096.645   FPUnit: 6 code (BP) slots and 2 literal slots
T4580 000:096.658   CPU_ReadMem(4 bytes @ 0xE000EDFC)
T4580 000:096.925   CPU_WriteMem(4 bytes @ 0xE000EDFC)
T4580 000:097.239   CPU_ReadMem(4 bytes @ 0xE0001000)
T4580 000:097.489   CPU_WriteMem(4 bytes @ 0xE0001000)
T4580 000:097.768   CPU_ReadMem(4 bytes @ 0xE000ED88)
T4580 000:098.024   CPU_WriteMem(4 bytes @ 0xE000ED88)
T4580 000:098.289   CPU_ReadMem(4 bytes @ 0xE000ED88)
T4580 000:098.540   CPU_WriteMem(4 bytes @ 0xE000ED88)
T4580 000:099.009   CoreSight components:
T4580 000:099.176   ROMTbl[0] @ E00FF000
T4580 000:099.186   CPU_ReadMem(64 bytes @ 0xE00FF000)
T4580 000:099.818   CPU_ReadMem(32 bytes @ 0xE000EFE0)
T4580 000:100.523   [0][0]: E000E000 CID B105E00D PID 000BB00C SCS-M7
T4580 000:100.538   CPU_ReadMem(32 bytes @ 0xE0001FE0)
T4580 000:101.239   [0][1]: E0001000 CID B105E00D PID 003BB002 DWT
T4580 000:101.252   CPU_ReadMem(32 bytes @ 0xE0002FE0)
T4580 000:101.876   [0][2]: E0002000 CID B105E00D PID 002BB003 FPB
T4580 000:101.887   CPU_ReadMem(32 bytes @ 0xE0000FE0)
T4580 000:102.568   [0][3]: E0000000 CID B105E00D PID 003BB001 ITM
T4580 000:102.579   CPU_ReadMem(32 bytes @ 0xE0040FE0)
T4580 000:103.239   [0][4]: E0040000 CID B105900D PID 000BB9A1 TPIU
T4580 000:103.249   CPU_ReadMem(32 bytes @ 0xE0041FE0)
T4580 000:103.874   [0][5]: E0041000 CID B105900D PID 000BB925 ETM
T4580 000:104.103 - 21.901ms returns 0x2BA01477
T4580 000:104.147 JLINK_GetDLLVersion()
T4580 000:104.152 - 0.004ms returns 93200
T4580 000:104.156 JLINK_CORE_GetFound()
T4580 000:104.160 - 0.003ms returns 0xE0000FF
T4580 000:104.164 JLINK_GetDebugInfo(0x100 = JLINKARM_ROM_TABLE_ADDR_INDEX)
T4580 000:104.168   Value=0xE00FF000
T4580 000:104.173 - 0.009ms returns 0
T4580 000:104.389 JLINK_ReadMem(0xE00FF000, 0x20 Bytes, ...)
T4580 000:104.413   CPU_ReadMem(32 bytes @ 0xE00FF000)
T4580 000:104.847   Data:  03 F0 F0 FF 03 20 F0 FF 03 30 F0 FF 03 10 F0 FF ...
T4580 000:104.861 - 0.471ms returns 0
T4580 000:104.873 JLINK_ReadMem(0xE000EFF0, 0x10 Bytes, ...)
T4580 000:104.883   CPU_ReadMem(16 bytes @ 0xE000EFF0)
T4580 000:105.250   Data:  0D 00 00 00 E0 00 00 00 05 00 00 00 B1 00 00 00
T4580 000:105.256 - 0.383ms returns 0
T4580 000:105.261 JLINK_ReadMem(0xE000EFD0, 0x20 Bytes, ...)
T4580 000:105.265   CPU_ReadMem(32 bytes @ 0xE000EFD0)
T4580 000:105.674   Data:  04 00 00 00 00 00 00 00 00 00 00 00 00 00 00 00 ...
T4580 000:105.687 - 0.426ms returns 0
T4580 000:105.698 JLINK_ReadMem(0xE0001FF0, 0x10 Bytes, ...)
T4580 000:105.709   CPU_ReadMem(16 bytes @ 0xE0001FF0)
T4580 000:106.021   Data:  0D 00 00 00 E0 00 00 00 05 00 00 00 B1 00 00 00
T4580 000:106.027 - 0.329ms returns 0
T4580 000:106.032 JLINK_ReadMem(0xE0001FD0, 0x20 Bytes, ...)
T4580 000:106.036   CPU_ReadMem(32 bytes @ 0xE0001FD0)
T4580 000:106.446   Data:  04 00 00 00 00 00 00 00 00 00 00 00 00 00 00 00 ...
T4580 000:106.467 - 0.434ms returns 0
T4580 000:106.478 JLINK_ReadMem(0xE0002FF0, 0x10 Bytes, ...)
T4580 000:106.489   CPU_ReadMem(16 bytes @ 0xE0002FF0)
T4580 000:106.822   Data:  0D 00 00 00 E0 00 00 00 05 00 00 00 B1 00 00 00
T4580 000:106.827 - 0.349ms returns 0
T4580 000:106.832 JLINK_ReadMem(0xE0002FD0, 0x20 Bytes, ...)
T4580 000:106.836   CPU_ReadMem(32 bytes @ 0xE0002FD0)
T4580 000:107.276   Data:  04 00 00 00 00 00 00 00 00 00 00 00 00 00 00 00 ...
T4580 000:107.289 - 0.457ms returns 0
T4580 000:107.300 JLINK_ReadMem(0xE0000FF0, 0x10 Bytes, ...)
T4580 000:107.310   CPU_ReadMem(16 bytes @ 0xE0000FF0)
T4580 000:107.634   Data:  0D 00 00 00 E0 00 00 00 05 00 00 00 B1 00 00 00
T4580 000:107.646 - 0.345ms returns 0
T4580 000:107.652 JLINK_ReadMem(0xE0000FD0, 0x20 Bytes, ...)
T4580 000:107.658   CPU_ReadMem(32 bytes @ 0xE0000FD0)
T4580 000:108.064   Data:  04 00 00 00 00 00 00 00 00 00 00 00 00 00 00 00 ...
T4580 000:108.075 - 0.423ms returns 0
T4580 000:108.081 JLINK_ReadMem(0xE0040FF0, 0x10 Bytes, ...)
T4580 000:108.087   CPU_ReadMem(16 bytes @ 0xE0040FF0)
T4580 000:108.405   Data:  0D 00 00 00 90 00 00 00 05 00 00 00 B1 00 00 00
T4580 000:108.417 - 0.336ms returns 0
T4580 000:108.429 JLINK_ReadMem(0xE0040FD0, 0x20 Bytes, ...)
T4580 000:108.440   CPU_ReadMem(32 bytes @ 0xE0040FD0)
T4580 000:108.903   Data:  04 00 00 00 00 00 00 00 00 00 00 00 00 00 00 00 ...
T4580 000:108.925 - 0.496ms returns 0
T4580 000:108.939 JLINK_ReadMem(0xE0041FF0, 0x10 Bytes, ...)
T4580 000:108.944   CPU_ReadMem(16 bytes @ 0xE0041FF0)
T4580 000:109.249   Data:  0D 00 00 00 90 00 00 00 05 00 00 00 B1 00 00 00
T4580 000:109.258 - 0.318ms returns 0
T4580 000:109.276 JLINK_ReadMem(0xE0041FD0, 0x20 Bytes, ...)
T4580 000:109.293   CPU_ReadMem(32 bytes @ 0xE0041FD0)
T4580 000:109.710   Data:  04 00 00 00 00 00 00 00 00 00 00 00 00 00 00 00 ...
T4580 000:109.730 - 0.454ms returns 0
T4580 000:109.747 JLINK_ReadMemU32(0xE000EF40, 0x1 Items)
T4580 000:109.752   CPU_ReadMem(4 bytes @ 0xE000EF40)
T4580 000:109.989   Data:  21 00 11 10
T4580 000:109.994 - 0.247ms returns 1 (0x1)
T4580 000:109.999 JLINK_ReadMemU32(0xE000EF44, 0x1 Items)
T4580 000:110.004   CPU_ReadMem(4 bytes @ 0xE000EF44)
T4580 000:110.252   Data:  11 00 00 11
T4580 000:110.261 - 0.261ms returns 1 (0x1)
T4580 000:110.267 JLINK_ReadMemU32(0xE000ED00, 0x1 Items)
T4580 000:110.272   CPU_ReadMem(4 bytes @ 0xE000ED00)
T4580 000:110.708   Data:  41 C2 0F 41
T4580 000:110.717   Debug reg: CPUID
T4580 000:110.722 - 0.455ms returns 1 (0x1)
T4580 000:110.728 JLINK_HasError()
T4580 000:110.734 JLINK_SetResetType(JLINKARM_CM3_RESET_TYPE_NORMAL)
T4580 000:110.738 - 0.004ms returns JLINKARM_CM3_RESET_TYPE_NORMAL
T4580 000:110.742 JLINK_Reset()
T4580 000:110.749   JLINK_GetResetTypeDesc
T4580 000:110.753   - 0.003ms 
T4580 000:111.168   Reset type: NORMAL (https://kb.segger.com/J-Link_Reset_Strategies)
T4580 000:111.187   CPU is running
T4580 000:111.194   CPU_WriteMem(4 bytes @ 0xE000EDF0)
T4580 000:111.482   CPU is running
T4580 000:111.488   CPU_WriteMem(4 bytes @ 0xE000EDFC)
T4580 000:111.981   Reset: Halt core after reset via DEMCR.VC_CORERESET.
T4580 000:112.582   Reset: Reset device via AIRCR.SYSRESETREQ.
T4580 000:112.592   CPU is running
T4580 000:112.599   CPU_WriteMem(4 bytes @ 0xE000ED0C)
T4580 000:165.181   CPU_ReadMem(4 bytes @ 0xE000EDF0)
T4580 000:165.494   CPU_ReadMem(4 bytes @ 0xE000EDF0)
T4580 000:168.365   CPU_WriteMem(4 bytes @ 0xE000EDFC)
T4580 000:174.563   CPU_ReadMem(4 bytes @ 0xE000EDF0)
T4580 000:177.491   CPU_WriteMem(4 bytes @ 0xE0002000)
T4580 000:177.901   CPU_ReadMem(4 bytes @ 0xE000EDFC)
T4580 000:178.179   CPU_ReadMem(4 bytes @ 0xE0001000)
T4580 000:178.460 - 67.716ms 
T4580 000:178.542 JLINK_HasError()
T4580 000:178.574 JLINK_ReadReg(R15 (PC))
T4580 000:178.583 - 0.028ms returns 0x0800019C
T4580 000:178.591 JLINK_ReadReg(XPSR)
T4580 000:178.598 - 0.006ms returns 0x01000000
T4580 000:178.606 JLINK_Halt()
T4580 000:178.613 - 0.006ms returns 0x00
T4580 000:178.621 JLINK_IsHalted()
T4580 000:178.635 - 0.014ms returns TRUE
T4580 000:178.644 JLINK_ReadMemU32(0xE000EDF0, 0x1 Items)
T4580 000:178.657   CPU_ReadMem(4 bytes @ 0xE000EDF0)
T4580 000:178.955   Data:  03 00 03 00
T4580 000:178.967   Debug reg: DHCSR
T4580 000:178.978 - 0.335ms returns 1 (0x1)
T4580 000:178.997 JLINK_WriteU32(0xE000EDF0, 0xA05F0003)
T4580 000:179.004   Debug reg: DHCSR
T4580 000:179.390   CPU_WriteMem(4 bytes @ 0xE000EDF0)
T4580 000:179.723 - 0.725ms returns 0 (0x00000000)
T4580 000:179.741 JLINK_WriteU32(0xE000EDFC, 0x01000000)
T4580 000:179.751   Debug reg: DEMCR
T4580 000:179.769   CPU_WriteMem(4 bytes @ 0xE000EDFC)
T4580 000:180.066 - 0.325ms returns 0 (0x00000000)
T4580 000:181.970 JLINK_GetHWStatus(...)
T4580 000:182.102 - 0.136ms returns 0
T4580 000:182.628 JLINK_GetNumBPUnits(Type = 0xFFFFFF00)
T4580 000:182.639 - 0.010ms returns 0x06
T4580 000:182.644 JLINK_GetNumBPUnits(Type = 0xF0)
T4580 000:182.648 - 0.004ms returns 0x2000
T4580 000:182.653 JLINK_GetNumWPUnits()
T4580 000:182.657 - 0.003ms returns 4
T4580 000:183.184 JLINK_GetSpeed()
T4580 000:183.192 - 0.007ms returns 4000
T4580 000:183.480 JLINK_ReadMemU32(0xE000E004, 0x1 Items)
T4580 000:183.490   CPU_ReadMem(4 bytes @ 0xE000E004)
T4580 000:183.778   Data:  02 00 00 00
T4580 000:183.794 - 0.314ms returns 1 (0x1)
T4580 000:183.806 JLINK_ReadMemU32(0xE000E004, 0x1 Items)
T4580 000:183.812   CPU_ReadMem(4 bytes @ 0xE000E004)
T4580 000:184.064   Data:  02 00 00 00
T4580 000:184.070 - 0.263ms returns 1 (0x1)
T4580 000:184.075 JLINK_WriteMem(0xE0001000, 0x1C Bytes, ...)
T4580 000:184.079   Data:  01 00 00 00 00 00 00 00 00 00 00 00 00 00 00 00 ...
T4580 000:184.087   CPU_WriteMem(28 bytes @ 0xE0001000)
T4580 000:184.476 - 0.401ms returns 0x1C
T4580 000:184.482 JLINK_ReadMem(0xE0001000, 0x1C Bytes, ...)
T4580 000:184.487   CPU_ReadMem(28 bytes @ 0xE0001000)
T4580 000:184.974   Data:  01 00 00 40 00 00 00 00 00 00 00 00 00 00 00 00 ...
T4580 000:184.987 - 0.504ms returns 0
T4580 000:184.998 JLINK_HasError()
T4580 000:185.009 JLINK_ReadReg(R15 (PC))
T4580 000:185.018 - 0.009ms returns 0x0800019C
T4580 000:185.027 JLINK_ReadReg(XPSR)
T4580 000:185.031 - 0.003ms returns 0x01000000
T4580 000:283.112 JLINK_HasError()
T4580 000:283.145 JLINK_SetResetType(JLINKARM_CM3_RESET_TYPE_NORMAL)
T4580 000:283.151 - 0.005ms returns JLINKARM_CM3_RESET_TYPE_NORMAL
T4580 000:283.155 JLINK_Reset()
T4580 000:283.166   JLINK_GetResetTypeDesc
T4580 000:283.170   - 0.004ms 
T4580 000:283.562   Reset type: NORMAL (https://kb.segger.com/J-Link_Reset_Strategies)
T4580 000:283.577   CPU_WriteMem(4 bytes @ 0xE000EDF0)
T4580 000:283.933   CPU_WriteMem(4 bytes @ 0xE000EDFC)
T4580 000:284.448   Reset: Halt core after reset via DEMCR.VC_CORERESET.
T4580 000:284.970   Reset: Reset device via AIRCR.SYSRESETREQ.
T4580 000:284.982   CPU_WriteMem(4 bytes @ 0xE000ED0C)
T4580 000:337.734   CPU_ReadMem(4 bytes @ 0xE000EDF0)
T4580 000:338.082   CPU_ReadMem(4 bytes @ 0xE000EDF0)
T4580 000:338.357   CPU_WriteMem(4 bytes @ 0xE000EDFC)
T4580 000:344.281   CPU_ReadMem(4 bytes @ 0xE000EDF0)
T4580 000:347.133   CPU_WriteMem(4 bytes @ 0xE0002000)
T4580 000:347.478   CPU_ReadMem(4 bytes @ 0xE000EDFC)
T4580 000:347.829   CPU_ReadMem(4 bytes @ 0xE0001000)
T4580 000:348.106 - 64.949ms 
T4580 000:348.182 JLINK_HasError()
T4580 000:348.194 JLINK_ReadReg(R15 (PC))
T4580 000:348.204 - 0.009ms returns 0x0800019C
T4580 000:348.213 JLINK_ReadReg(XPSR)
T4580 000:348.221 - 0.007ms returns 0x01000000
T4580 000:348.744 JLINK_ReadMem(0x0800019C, 0x3C Bytes, ...)
T4580 000:348.771   CPU_ReadMem(128 bytes @ 0x08000180)
T4580 000:349.798    -- Updating C cache (128 bytes @ 0x08000180)
T4580 000:349.819    -- Read from C cache (60 bytes @ 0x0800019C)
T4580 000:349.835   Data:  06 48 80 47 06 48 00 47 FE E7 FE E7 FE E7 FE E7 ...
T4580 000:349.848 - 1.104ms returns 0
T4580 004:548.725 JLINK_ReadMem(0x2000000C, 0x4 Bytes, ...)
T4580 004:548.768   CPU_ReadMem(64 bytes @ 0x20000000)
T4580 004:549.411    -- Updating C cache (64 bytes @ 0x20000000)
T4580 004:549.483    -- Read from C cache (4 bytes @ 0x2000000C)
T4580 004:549.493   Data:  00 00 00 00
T4580 004:549.499 - 0.774ms returns 0
T4580 004:554.158 JLINK_ReadMem(0x20000010, 0x4 Bytes, ...)
T4580 004:554.197    -- Read from C cache (4 bytes @ 0x20000010)
T4580 004:554.203   Data:  00 00 00 00
T4580 004:554.209 - 0.050ms returns 0
T4580 004:558.602 JLINK_ReadMem(0x2000000A, 0x2 Bytes, ...)
T4580 004:558.619    -- Read from C cache (2 bytes @ 0x2000000A)
T4580 004:558.624   Data:  00 00
T4580 004:558.629 - 0.027ms returns 0
T48A0 004:601.846 JLINK_HasError()
T48A0 004:601.893 JLINK_SetBPEx(Addr = 0x080105B4, Type = 0xFFFFFFF2)
T48A0 004:601.901 - 0.007ms returns 0x00000001
T48A0 004:601.905 JLINK_HasError()
T48A0 004:601.909 JLINK_SetBPEx(Addr = 0x08010904, Type = 0xFFFFFFF2)
T48A0 004:601.913 - 0.003ms returns 0x00000002
T48A0 004:601.917 JLINK_HasError()
T48A0 004:601.921 JLINK_SetBPEx(Addr = 0x08010600, Type = 0xFFFFFFF2)
T48A0 004:601.925 - 0.003ms returns 0x00000003
T48A0 004:601.928 JLINK_HasError()
T48A0 004:601.932 JLINK_HasError()
T48A0 004:601.937 JLINK_Go()
T48A0 004:602.265   CPU_WriteMem(4 bytes @ 0xE0002000)
T48A0 004:602.664   CPU_WriteMem(4 bytes @ 0xE0002000)
T48A0 004:602.948   CPU_WriteMem(4 bytes @ 0xE0002000)
T48A0 004:603.260   CPU_ReadMem(4 bytes @ 0xE0001000)
T48A0 004:603.529   CPU_WriteMem(4 bytes @ 0xE0002008)
T48A0 004:603.551   CPU_WriteMem(4 bytes @ 0xE000200C)
T48A0 004:603.559   CPU_WriteMem(4 bytes @ 0xE0002010)
T48A0 004:603.568   CPU_WriteMem(4 bytes @ 0xE0002014)
T48A0 004:603.576   CPU_WriteMem(4 bytes @ 0xE0002018)
T48A0 004:603.585   CPU_WriteMem(4 bytes @ 0xE000201C)
T48A0 004:604.848   CPU_WriteMem(4 bytes @ 0xE0001004)
T48A0 004:606.804   Memory map 'after startup completion point' is active
T48A0 004:606.820 - 4.882ms 
T48A0 004:706.931 JLINK_HasError()
T48A0 004:706.973 JLINK_IsHalted()
T48A0 004:709.568 - 2.594ms returns TRUE
T48A0 004:709.589 JLINK_HasError()
T48A0 004:709.599 JLINK_Halt()
T48A0 004:709.607 - 0.007ms returns 0x00
T48A0 004:709.616 JLINK_IsHalted()
T48A0 004:709.624 - 0.008ms returns TRUE
T48A0 004:709.633 JLINK_IsHalted()
T48A0 004:709.639 - 0.007ms returns TRUE
T48A0 004:709.648 JLINK_IsHalted()
T48A0 004:709.655 - 0.007ms returns TRUE
T48A0 004:709.664 JLINK_HasError()
T48A0 004:709.674 JLINK_ReadReg(R15 (PC))
T48A0 004:709.684 - 0.010ms returns 0x080105B4
T48A0 004:709.693 JLINK_ReadReg(XPSR)
T48A0 004:709.700 - 0.007ms returns 0x61000000
T48A0 004:709.710 JLINK_HasError()
T48A0 004:709.719 JLINK_ClrBPEx(BPHandle = 0x00000001)
T48A0 004:709.727 - 0.008ms returns 0x00
T48A0 004:709.736 JLINK_HasError()
T48A0 004:709.745 JLINK_ClrBPEx(BPHandle = 0x00000002)
T48A0 004:709.752 - 0.007ms returns 0x00
T48A0 004:709.760 JLINK_HasError()
T48A0 004:709.769 JLINK_ClrBPEx(BPHandle = 0x00000003)
T48A0 004:709.776 - 0.007ms returns 0x00
T48A0 004:709.784 JLINK_HasError()
T48A0 004:709.793 JLINK_HasError()
T48A0 004:709.802 JLINK_ReadMemU32(0xE000ED30, 0x1 Items)
T48A0 004:709.818   CPU_ReadMem(4 bytes @ 0xE000ED30)
T48A0 004:710.121   Data:  02 00 00 00
T48A0 004:710.137 - 0.335ms returns 1 (0x1)
T48A0 004:710.147 JLINK_ReadMemU32(0xE0001028, 0x1 Items)
T48A0 004:710.159   CPU_ReadMem(4 bytes @ 0xE0001028)
T48A0 004:710.445   Data:  00 00 00 00
T48A0 004:710.458   Debug reg: DWT_FUNC[0]
T48A0 004:710.467 - 0.319ms returns 1 (0x1)
T48A0 004:710.477 JLINK_ReadMemU32(0xE0001038, 0x1 Items)
T48A0 004:710.485   CPU_ReadMem(4 bytes @ 0xE0001038)
T48A0 004:710.816   Data:  00 02 00 00
T48A0 004:710.828   Debug reg: DWT_FUNC[1]
T48A0 004:710.836 - 0.360ms returns 1 (0x1)
T48A0 004:710.845 JLINK_ReadMemU32(0xE0001048, 0x1 Items)
T48A0 004:710.853   CPU_ReadMem(4 bytes @ 0xE0001048)
T48A0 004:711.243   Data:  00 00 00 00
T48A0 004:711.253   Debug reg: DWT_FUNC[2]
T48A0 004:711.262 - 0.417ms returns 1 (0x1)
T48A0 004:711.270 JLINK_ReadMemU32(0xE0001058, 0x1 Items)
T48A0 004:711.278   CPU_ReadMem(4 bytes @ 0xE0001058)
T48A0 004:711.562   Data:  00 00 00 00
T48A0 004:711.593   Debug reg: DWT_FUNC[3]
T48A0 004:711.614 - 0.343ms returns 1 (0x1)
T48A0 004:711.673 JLINK_HasError()
T48A0 004:711.703 JLINK_ReadReg(R0)
T48A0 004:711.713 - 0.028ms returns 0x080105B5
T48A0 004:711.721 JLINK_ReadReg(R1)
T48A0 004:711.729 - 0.007ms returns 0x20009C60
T48A0 004:711.737 JLINK_ReadReg(R2)
T48A0 004:711.745 - 0.007ms returns 0x00000000
T48A0 004:711.753 JLINK_ReadReg(R3)
T48A0 004:711.761 - 0.007ms returns 0x0800AA39
T48A0 004:711.769 JLINK_ReadReg(R4)
T48A0 004:711.777 - 0.007ms returns 0x080155E8
T48A0 004:711.785 JLINK_ReadReg(R5)
T48A0 004:711.792 - 0.007ms returns 0x080155E8
T48A0 004:711.801 JLINK_ReadReg(R6)
T48A0 004:711.808 - 0.007ms returns 0x00000000
T48A0 004:711.816 JLINK_ReadReg(R7)
T48A0 004:711.823 - 0.007ms returns 0x00000000
T48A0 004:711.832 JLINK_ReadReg(R8)
T48A0 004:711.839 - 0.007ms returns 0x00000000
T48A0 004:711.847 JLINK_ReadReg(R9)
T48A0 004:711.855 - 0.007ms returns 0x00000000
T48A0 004:711.863 JLINK_ReadReg(R10)
T48A0 004:711.870 - 0.007ms returns 0x00000000
T48A0 004:711.879 JLINK_ReadReg(R11)
T48A0 004:711.887 - 0.007ms returns 0x00000000
T48A0 004:711.895 JLINK_ReadReg(R12)
T48A0 004:711.902 - 0.007ms returns 0x00000000
T48A0 004:711.911 JLINK_ReadReg(R13 (SP))
T48A0 004:711.919 - 0.007ms returns 0x20009C60
T48A0 004:711.927 JLINK_ReadReg(R14)
T48A0 004:711.934 - 0.007ms returns 0x08000B45
T48A0 004:711.943 JLINK_ReadReg(R15 (PC))
T48A0 004:711.951 - 0.007ms returns 0x080105B4
T48A0 004:711.960 JLINK_ReadReg(XPSR)
T48A0 004:711.967 - 0.007ms returns 0x61000000
T48A0 004:711.975 JLINK_ReadReg(MSP)
T48A0 004:711.983 - 0.007ms returns 0x20009C60
T48A0 004:711.991 JLINK_ReadReg(PSP)
T48A0 004:711.999 - 0.007ms returns 0x00000000
T48A0 004:712.007 JLINK_ReadReg(CFBP)
T48A0 004:712.014 - 0.007ms returns 0x00000000
T48A0 004:712.023 JLINK_ReadReg(FPSCR)
T48A0 004:715.933 - 3.909ms returns 0x00000000
T48A0 004:715.949 JLINK_ReadReg(FPS0)
T48A0 004:715.955 - 0.006ms returns 0x00000000
T48A0 004:715.962 JLINK_ReadReg(FPS1)
T48A0 004:715.973 - 0.010ms returns 0x00000000
T48A0 004:715.981 JLINK_ReadReg(FPS2)
T48A0 004:715.987 - 0.006ms returns 0x00000000
T48A0 004:715.994 JLINK_ReadReg(FPS3)
T48A0 004:715.999 - 0.005ms returns 0x00000000
T48A0 004:716.005 JLINK_ReadReg(FPS4)
T48A0 004:716.011 - 0.005ms returns 0x00000000
T48A0 004:716.017 JLINK_ReadReg(FPS5)
T48A0 004:716.022 - 0.005ms returns 0x00000000
T48A0 004:716.028 JLINK_ReadReg(FPS6)
T48A0 004:716.033 - 0.005ms returns 0x00000000
T48A0 004:716.040 JLINK_ReadReg(FPS7)
T48A0 004:716.045 - 0.005ms returns 0x00000000
T48A0 004:716.051 JLINK_ReadReg(FPS8)
T48A0 004:716.056 - 0.005ms returns 0x00000000
T48A0 004:716.062 JLINK_ReadReg(FPS9)
T48A0 004:716.067 - 0.005ms returns 0x00000000
T48A0 004:716.073 JLINK_ReadReg(FPS10)
T48A0 004:716.078 - 0.005ms returns 0x00000000
T48A0 004:716.085 JLINK_ReadReg(FPS11)
T48A0 004:716.089 - 0.005ms returns 0x00000000
T48A0 004:716.096 JLINK_ReadReg(FPS12)
T48A0 004:716.101 - 0.005ms returns 0x00000000
T48A0 004:716.107 JLINK_ReadReg(FPS13)
T48A0 004:716.112 - 0.005ms returns 0x00000000
T48A0 004:716.118 JLINK_ReadReg(FPS14)
T48A0 004:716.123 - 0.005ms returns 0x00000000
T48A0 004:716.129 JLINK_ReadReg(FPS15)
T48A0 004:716.135 - 0.005ms returns 0x00000000
T48A0 004:716.141 JLINK_ReadReg(FPS16)
T48A0 004:716.146 - 0.005ms returns 0x00000000
T48A0 004:716.152 JLINK_ReadReg(FPS17)
T48A0 004:716.157 - 0.005ms returns 0x00000000
T48A0 004:716.163 JLINK_ReadReg(FPS18)
T48A0 004:716.169 - 0.005ms returns 0x00000000
T48A0 004:716.175 JLINK_ReadReg(FPS19)
T48A0 004:716.180 - 0.005ms returns 0x00000000
T48A0 004:716.186 JLINK_ReadReg(FPS20)
T48A0 004:716.191 - 0.005ms returns 0x00000000
T48A0 004:716.197 JLINK_ReadReg(FPS21)
T48A0 004:716.202 - 0.005ms returns 0x00000000
T48A0 004:716.209 JLINK_ReadReg(FPS22)
T48A0 004:716.213 - 0.005ms returns 0x00000000
T48A0 004:716.219 JLINK_ReadReg(FPS23)
T48A0 004:716.225 - 0.005ms returns 0x00000000
T48A0 004:716.230 JLINK_ReadReg(FPS24)
T48A0 004:716.235 - 0.005ms returns 0x00000000
T48A0 004:716.241 JLINK_ReadReg(FPS25)
T48A0 004:716.253 - 0.011ms returns 0x00000000
T48A0 004:716.259 JLINK_ReadReg(FPS26)
T48A0 004:716.265 - 0.005ms returns 0x00000000
T48A0 004:716.271 JLINK_ReadReg(FPS27)
T48A0 004:716.276 - 0.005ms returns 0x00000000
T48A0 004:716.282 JLINK_ReadReg(FPS28)
T48A0 004:716.287 - 0.005ms returns 0x00000000
T48A0 004:716.293 JLINK_ReadReg(FPS29)
T48A0 004:716.298 - 0.005ms returns 0x00000000
T48A0 004:716.304 JLINK_ReadReg(FPS30)
T48A0 004:716.309 - 0.005ms returns 0x00000000
T48A0 004:716.315 JLINK_ReadReg(FPS31)
T48A0 004:716.321 - 0.005ms returns 0x00000000
T4580 004:716.423 JLINK_HasError()
T4580 004:716.440 JLINK_ReadMemU32(0xE0001004, 0x1 Items)
T4580 004:716.454   CPU_ReadMem(4 bytes @ 0xE0001004)
T4580 004:716.729   Data:  20 F8 00 00
T4580 004:716.739   Debug reg: DWT_CYCCNT
T4580 004:716.746 - 0.306ms returns 1 (0x1)
T4580 004:718.044 JLINK_ReadMem(0x2000000C, 0x4 Bytes, ...)
T4580 004:718.064   CPU_ReadMem(64 bytes @ 0x20000000)
T4580 004:718.677    -- Updating C cache (64 bytes @ 0x20000000)
T4580 004:718.688    -- Read from C cache (4 bytes @ 0x2000000C)
T4580 004:718.693   Data:  00 00 00 00
T4580 004:718.697 - 0.653ms returns 0
T4580 004:718.715 JLINK_ReadMem(0x20000010, 0x4 Bytes, ...)
T4580 004:718.719    -- Read from C cache (4 bytes @ 0x20000010)
T4580 004:718.724   Data:  00 00 00 00
T4580 004:718.729 - 0.014ms returns 0
T4580 004:718.735 JLINK_ReadMem(0x2000000A, 0x2 Bytes, ...)
T4580 004:718.739    -- Read from C cache (2 bytes @ 0x2000000A)
T4580 004:718.743   Data:  00 00
T4580 004:718.748 - 0.013ms returns 0
T4580 004:746.225 JLINK_ReadMem(0x0800125E, 0x2 Bytes, ...)
T4580 004:746.266   CPU_ReadMem(64 bytes @ 0x08001240)
T4580 004:746.916    -- Updating C cache (64 bytes @ 0x08001240)
T4580 004:746.934    -- Read from C cache (2 bytes @ 0x0800125E)
T4580 004:746.939   Data:  00 BF
T4580 004:746.945 - 0.719ms returns 0
T4580 004:746.951 JLINK_ReadMem(0x08001260, 0x3C Bytes, ...)
T4580 004:746.956   CPU_ReadMem(64 bytes @ 0x08001280)
T4580 004:747.558    -- Updating C cache (64 bytes @ 0x08001280)
T4580 004:747.580    -- Read from C cache (60 bytes @ 0x08001260)
T4580 004:747.585   Data:  FE E7 30 B5 04 46 0D 46 00 22 29 46 20 46 00 F0 ...
T4580 004:747.590 - 0.639ms returns 0
T48A0 006:834.153 JLINK_ReadMem(0x080105B4, 0x3C Bytes, ...)
T48A0 006:834.203   CPU_ReadMem(128 bytes @ 0x08010580)
T48A0 006:835.373    -- Updating C cache (128 bytes @ 0x08010580)
T48A0 006:835.408    -- Read from C cache (60 bytes @ 0x080105B4)
T48A0 006:835.423   Data:  AD F5 04 5D F1 F7 24 FE F6 F7 58 FC F4 F7 F2 FF ...
T48A0 006:835.435 - 1.283ms returns 0
T48A0 006:835.472 JLINK_HasError()
T48A0 006:835.484 JLINK_Step()
T48A0 006:835.778    -- Read from C cache (2 bytes @ 0x080105B4)
T48A0 006:835.793   CPU_ReadMem(4 bytes @ 0xE000ED18)
T48A0 006:836.238   CPU_WriteMem(4 bytes @ 0xE000ED18)
T48A0 006:836.658   CPU_ReadMem(4 bytes @ 0xE000ED18)
T48A0 006:836.941   CPU_WriteMem(4 bytes @ 0xE000ED18)
T48A0 006:837.359    -- Read from C cache (2 bytes @ 0x080105B6)
T48A0 006:837.375   -- Not simulated
T48A0 006:837.390   CPU_WriteMem(4 bytes @ 0xE0002008)
T48A0 006:837.397   CPU_WriteMem(4 bytes @ 0xE000200C)
T48A0 006:837.401   CPU_WriteMem(4 bytes @ 0xE0002010)
T48A0 006:841.027 - 5.542ms returns 0
T48A0 006:841.045 JLINK_HasError()
T48A0 006:841.051 JLINK_ReadReg(R15 (PC))
T48A0 006:841.056 - 0.004ms returns 0x080105B8
T48A0 006:841.103 JLINK_ReadReg(XPSR)
T48A0 006:841.108 - 0.004ms returns 0x61000000
T48A0 006:841.145 JLINK_HasError()
T48A0 006:841.149 JLINK_ReadReg(R0)
T48A0 006:841.153 - 0.003ms returns 0x080105B5
T48A0 006:841.157 JLINK_ReadReg(R1)
T48A0 006:841.160 - 0.003ms returns 0x20009C60
T48A0 006:841.163 JLINK_ReadReg(R2)
T48A0 006:841.166 - 0.003ms returns 0x00000000
T48A0 006:841.171 JLINK_ReadReg(R3)
T48A0 006:841.174 - 0.003ms returns 0x0800AA39
T48A0 006:841.178 JLINK_ReadReg(R4)
T48A0 006:841.181 - 0.003ms returns 0x080155E8
T48A0 006:841.185 JLINK_ReadReg(R5)
T48A0 006:841.189 - 0.003ms returns 0x080155E8
T48A0 006:841.197 JLINK_ReadReg(R6)
T48A0 006:841.201 - 0.004ms returns 0x00000000
T48A0 006:841.205 JLINK_ReadReg(R7)
T48A0 006:841.209 - 0.003ms returns 0x00000000
T48A0 006:841.213 JLINK_ReadReg(R8)
T48A0 006:841.216 - 0.003ms returns 0x00000000
T48A0 006:841.219 JLINK_ReadReg(R9)
T48A0 006:841.222 - 0.003ms returns 0x00000000
T48A0 006:841.226 JLINK_ReadReg(R10)
T48A0 006:841.229 - 0.003ms returns 0x00000000
T48A0 006:841.233 JLINK_ReadReg(R11)
T48A0 006:841.237 - 0.003ms returns 0x00000000
T48A0 006:841.241 JLINK_ReadReg(R12)
T48A0 006:841.244 - 0.003ms returns 0x00000000
T48A0 006:841.248 JLINK_ReadReg(R13 (SP))
T48A0 006:841.251 - 0.003ms returns 0x20007B60
T48A0 006:841.255 JLINK_ReadReg(R14)
T48A0 006:841.258 - 0.003ms returns 0x08000B45
T48A0 006:841.262 JLINK_ReadReg(R15 (PC))
T48A0 006:841.265 - 0.003ms returns 0x080105B8
T48A0 006:841.270 JLINK_ReadReg(XPSR)
T48A0 006:841.273 - 0.003ms returns 0x61000000
T48A0 006:841.277 JLINK_ReadReg(MSP)
T48A0 006:841.281 - 0.003ms returns 0x20007B60
T48A0 006:841.285 JLINK_ReadReg(PSP)
T48A0 006:841.288 - 0.003ms returns 0x00000000
T48A0 006:841.291 JLINK_ReadReg(CFBP)
T48A0 006:841.295 - 0.003ms returns 0x00000000
T48A0 006:841.298 JLINK_ReadReg(FPSCR)
T48A0 006:845.137 - 3.838ms returns 0x00000000
T48A0 006:845.145 JLINK_ReadReg(FPS0)
T48A0 006:845.148 - 0.003ms returns 0x00000000
T48A0 006:845.152 JLINK_ReadReg(FPS1)
T48A0 006:845.155 - 0.003ms returns 0x00000000
T48A0 006:845.159 JLINK_ReadReg(FPS2)
T48A0 006:845.162 - 0.003ms returns 0x00000000
T48A0 006:845.166 JLINK_ReadReg(FPS3)
T48A0 006:845.169 - 0.003ms returns 0x00000000
T48A0 006:845.173 JLINK_ReadReg(FPS4)
T48A0 006:845.177 - 0.003ms returns 0x00000000
T48A0 006:845.181 JLINK_ReadReg(FPS5)
T48A0 006:845.184 - 0.003ms returns 0x00000000
T48A0 006:845.187 JLINK_ReadReg(FPS6)
T48A0 006:845.190 - 0.003ms returns 0x00000000
T48A0 006:845.194 JLINK_ReadReg(FPS7)
T48A0 006:845.198 - 0.003ms returns 0x00000000
T48A0 006:845.201 JLINK_ReadReg(FPS8)
T48A0 006:845.205 - 0.003ms returns 0x00000000
T48A0 006:845.209 JLINK_ReadReg(FPS9)
T48A0 006:845.212 - 0.003ms returns 0x00000000
T48A0 006:845.216 JLINK_ReadReg(FPS10)
T48A0 006:845.219 - 0.003ms returns 0x00000000
T48A0 006:845.223 JLINK_ReadReg(FPS11)
T48A0 006:845.226 - 0.003ms returns 0x00000000
T48A0 006:845.230 JLINK_ReadReg(FPS12)
T48A0 006:845.233 - 0.003ms returns 0x00000000
T48A0 006:845.237 JLINK_ReadReg(FPS13)
T48A0 006:845.240 - 0.003ms returns 0x00000000
T48A0 006:845.244 JLINK_ReadReg(FPS14)
T48A0 006:845.248 - 0.003ms returns 0x00000000
T48A0 006:845.251 JLINK_ReadReg(FPS15)
T48A0 006:845.254 - 0.003ms returns 0x00000000
T48A0 006:845.258 JLINK_ReadReg(FPS16)
T48A0 006:845.261 - 0.003ms returns 0x00000000
T48A0 006:845.265 JLINK_ReadReg(FPS17)
T48A0 006:845.269 - 0.003ms returns 0x00000000
T48A0 006:845.273 JLINK_ReadReg(FPS18)
T48A0 006:845.276 - 0.003ms returns 0x00000000
T48A0 006:845.280 JLINK_ReadReg(FPS19)
T48A0 006:845.283 - 0.003ms returns 0x00000000
T48A0 006:845.286 JLINK_ReadReg(FPS20)
T48A0 006:845.290 - 0.003ms returns 0x00000000
T48A0 006:845.294 JLINK_ReadReg(FPS21)
T48A0 006:845.297 - 0.003ms returns 0x00000000
T48A0 006:845.301 JLINK_ReadReg(FPS22)
T48A0 006:845.304 - 0.003ms returns 0x00000000
T48A0 006:845.308 JLINK_ReadReg(FPS23)
T48A0 006:845.311 - 0.003ms returns 0x00000000
T48A0 006:845.315 JLINK_ReadReg(FPS24)
T48A0 006:845.318 - 0.003ms returns 0x00000000
T48A0 006:845.321 JLINK_ReadReg(FPS25)
T48A0 006:845.325 - 0.003ms returns 0x00000000
T48A0 006:845.329 JLINK_ReadReg(FPS26)
T48A0 006:845.332 - 0.003ms returns 0x00000000
T48A0 006:845.336 JLINK_ReadReg(FPS27)
T48A0 006:845.339 - 0.003ms returns 0x00000000
T48A0 006:845.343 JLINK_ReadReg(FPS28)
T48A0 006:845.346 - 0.003ms returns 0x00000000
T48A0 006:845.350 JLINK_ReadReg(FPS29)
T48A0 006:845.353 - 0.003ms returns 0x00000000
T48A0 006:845.357 JLINK_ReadReg(FPS30)
T48A0 006:845.361 - 0.003ms returns 0x00000000
T48A0 006:845.364 JLINK_ReadReg(FPS31)
T48A0 006:845.367 - 0.003ms returns 0x00000000
T4580 006:845.481 JLINK_HasError()
T4580 006:845.502 JLINK_ReadMemU32(0xE0001004, 0x1 Items)
T4580 006:845.510   CPU_ReadMem(4 bytes @ 0xE0001004)
T4580 006:845.785   Data:  21 F8 00 00
T4580 006:845.792   Debug reg: DWT_CYCCNT
T4580 006:845.797 - 0.295ms returns 1 (0x1)
T4580 006:846.785 JLINK_ReadMem(0x2000000C, 0x4 Bytes, ...)
T4580 006:846.801   CPU_ReadMem(64 bytes @ 0x20000000)
T4580 006:847.450    -- Updating C cache (64 bytes @ 0x20000000)
T4580 006:847.467    -- Read from C cache (4 bytes @ 0x2000000C)
T4580 006:847.478   Data:  00 00 00 00
T4580 006:847.490 - 0.704ms returns 0
T4580 006:847.512 JLINK_ReadMem(0x20000010, 0x4 Bytes, ...)
T4580 006:847.517    -- Read from C cache (4 bytes @ 0x20000010)
T4580 006:847.521   Data:  00 00 00 00
T4580 006:847.526 - 0.014ms returns 0
T4580 006:847.533 JLINK_ReadMem(0x2000000A, 0x2 Bytes, ...)
T4580 006:847.537    -- Read from C cache (2 bytes @ 0x2000000A)
T4580 006:847.541   Data:  00 00
T4580 006:847.546 - 0.013ms returns 0
T48A0 007:343.721 JLINK_ReadMem(0x080105B8, 0x3C Bytes, ...)
T48A0 007:343.766   CPU_ReadMem(128 bytes @ 0x08010580)
T48A0 007:344.772    -- Updating C cache (128 bytes @ 0x08010580)
T48A0 007:344.801    -- Read from C cache (60 bytes @ 0x080105B8)
T48A0 007:344.812   Data:  F1 F7 24 FE F6 F7 58 FC F4 F7 F2 FF F4 F7 6C FF ...
T48A0 007:344.821 - 1.098ms returns 0
T48A0 007:344.834 JLINK_HasError()
T48A0 007:344.842 JLINK_SetBPEx(Addr = 0x080105BC, Type = 0xFFFFFFF2)
T48A0 007:344.850 - 0.008ms returns 0x00000004
T48A0 007:344.857 JLINK_HasError()
T48A0 007:344.864 JLINK_SetBPEx(Addr = 0x08010904, Type = 0xFFFFFFF2)
T48A0 007:344.869 - 0.006ms returns 0x00000005
T48A0 007:344.876 JLINK_HasError()
T48A0 007:344.882 JLINK_SetBPEx(Addr = 0x08010600, Type = 0xFFFFFFF2)
T48A0 007:344.888 - 0.005ms returns 0x00000006
T48A0 007:344.894 JLINK_HasError()
T48A0 007:344.901 JLINK_HasError()
T48A0 007:344.907 JLINK_Go()
T48A0 007:345.269   CPU_WriteMem(4 bytes @ 0xE0002000)
T48A0 007:345.566   CPU_WriteMem(4 bytes @ 0xE0002000)
T48A0 007:345.833   CPU_WriteMem(4 bytes @ 0xE0002000)
T48A0 007:346.121   CPU_ReadMem(4 bytes @ 0xE0001000)
T48A0 007:346.437   CPU_WriteMem(4 bytes @ 0xE0002008)
T48A0 007:346.446   CPU_WriteMem(4 bytes @ 0xE000200C)
T48A0 007:346.451   CPU_WriteMem(4 bytes @ 0xE0002010)
T48A0 007:347.563 - 2.655ms 
T48A0 007:448.541 JLINK_HasError()
T48A0 007:448.579 JLINK_IsHalted()
T48A0 007:451.307 - 2.726ms returns TRUE
T48A0 007:451.337 JLINK_HasError()
T48A0 007:451.389 JLINK_Halt()
T48A0 007:451.397 - 0.007ms returns 0x00
T48A0 007:451.403 JLINK_IsHalted()
T48A0 007:451.409 - 0.005ms returns TRUE
T48A0 007:451.416 JLINK_IsHalted()
T48A0 007:451.421 - 0.005ms returns TRUE
T48A0 007:451.427 JLINK_IsHalted()
T48A0 007:451.433 - 0.005ms returns TRUE
T48A0 007:451.440 JLINK_HasError()
T48A0 007:451.447 JLINK_ReadReg(R15 (PC))
T48A0 007:451.454 - 0.007ms returns 0x080105BC
T48A0 007:451.461 JLINK_ReadReg(XPSR)
T48A0 007:451.466 - 0.005ms returns 0x61000000
T48A0 007:451.473 JLINK_HasError()
T48A0 007:451.480 JLINK_ClrBPEx(BPHandle = 0x00000004)
T48A0 007:451.489 - 0.009ms returns 0x00
T48A0 007:451.495 JLINK_HasError()
T48A0 007:451.501 JLINK_ClrBPEx(BPHandle = 0x00000005)
T48A0 007:451.505 - 0.004ms returns 0x00
T48A0 007:451.510 JLINK_HasError()
T48A0 007:451.516 JLINK_ClrBPEx(BPHandle = 0x00000006)
T48A0 007:451.521 - 0.004ms returns 0x00
T48A0 007:451.526 JLINK_HasError()
T48A0 007:451.532 JLINK_HasError()
T48A0 007:451.537 JLINK_ReadMemU32(0xE000ED30, 0x1 Items)
T48A0 007:451.549   CPU_ReadMem(4 bytes @ 0xE000ED30)
T48A0 007:451.836   Data:  02 00 00 00
T48A0 007:451.845 - 0.307ms returns 1 (0x1)
T48A0 007:451.852 JLINK_ReadMemU32(0xE0001028, 0x1 Items)
T48A0 007:451.859   CPU_ReadMem(4 bytes @ 0xE0001028)
T48A0 007:452.237   Data:  00 00 00 00
T48A0 007:452.251   Debug reg: DWT_FUNC[0]
T48A0 007:452.258 - 0.406ms returns 1 (0x1)
T48A0 007:452.265 JLINK_ReadMemU32(0xE0001038, 0x1 Items)
T48A0 007:452.272   CPU_ReadMem(4 bytes @ 0xE0001038)
T48A0 007:452.533   Data:  00 02 00 00
T48A0 007:452.541   Debug reg: DWT_FUNC[1]
T48A0 007:452.547 - 0.283ms returns 1 (0x1)
T48A0 007:452.553 JLINK_ReadMemU32(0xE0001048, 0x1 Items)
T48A0 007:452.558   CPU_ReadMem(4 bytes @ 0xE0001048)
T48A0 007:452.809   Data:  00 00 00 00
T48A0 007:452.816   Debug reg: DWT_FUNC[2]
T48A0 007:452.822 - 0.269ms returns 1 (0x1)
T48A0 007:452.827 JLINK_ReadMemU32(0xE0001058, 0x1 Items)
T48A0 007:452.833   CPU_ReadMem(4 bytes @ 0xE0001058)
T48A0 007:453.082   Data:  00 00 00 00
T48A0 007:453.089   Debug reg: DWT_FUNC[3]
T48A0 007:453.094 - 0.267ms returns 1 (0x1)
T48A0 007:453.130 JLINK_HasError()
T48A0 007:453.136 JLINK_ReadReg(R0)
T48A0 007:453.141 - 0.004ms returns 0x00000000
T48A0 007:453.145 JLINK_ReadReg(R1)
T48A0 007:453.149 - 0.003ms returns 0x40023840
T48A0 007:453.153 JLINK_ReadReg(R2)
T48A0 007:453.157 - 0.003ms returns 0xE000ED18
T48A0 007:453.161 JLINK_ReadReg(R3)
T48A0 007:453.165 - 0.003ms returns 0x10000000
T48A0 007:453.170 JLINK_ReadReg(R4)
T48A0 007:453.174 - 0.003ms returns 0x080155E8
T48A0 007:453.179 JLINK_ReadReg(R5)
T48A0 007:453.183 - 0.003ms returns 0x080155E8
T48A0 007:453.187 JLINK_ReadReg(R6)
T48A0 007:453.191 - 0.003ms returns 0x00000000
T48A0 007:453.196 JLINK_ReadReg(R7)
T48A0 007:453.200 - 0.003ms returns 0x00000000
T48A0 007:453.204 JLINK_ReadReg(R8)
T48A0 007:453.208 - 0.003ms returns 0x00000000
T48A0 007:453.213 JLINK_ReadReg(R9)
T48A0 007:453.216 - 0.003ms returns 0x00000000
T48A0 007:453.221 JLINK_ReadReg(R10)
T48A0 007:453.225 - 0.003ms returns 0x00000000
T48A0 007:453.229 JLINK_ReadReg(R11)
T48A0 007:453.233 - 0.003ms returns 0x00000000
T48A0 007:453.237 JLINK_ReadReg(R12)
T48A0 007:453.245 - 0.007ms returns 0x00000000
T48A0 007:453.250 JLINK_ReadReg(R13 (SP))
T48A0 007:453.254 - 0.004ms returns 0x20007B60
T48A0 007:453.259 JLINK_ReadReg(R14)
T48A0 007:453.264 - 0.005ms returns 0x08002237
T48A0 007:453.269 JLINK_ReadReg(R15 (PC))
T48A0 007:453.272 - 0.003ms returns 0x080105BC
T48A0 007:453.276 JLINK_ReadReg(XPSR)
T48A0 007:453.280 - 0.003ms returns 0x61000000
T48A0 007:453.284 JLINK_ReadReg(MSP)
T48A0 007:453.287 - 0.003ms returns 0x20007B60
T48A0 007:453.291 JLINK_ReadReg(PSP)
T48A0 007:453.295 - 0.003ms returns 0x00000000
T48A0 007:453.299 JLINK_ReadReg(CFBP)
T48A0 007:453.302 - 0.003ms returns 0x00000000
T48A0 007:453.307 JLINK_ReadReg(FPSCR)
T48A0 007:457.161 - 3.853ms returns 0x00000000
T48A0 007:457.168 JLINK_ReadReg(FPS0)
T48A0 007:457.173 - 0.004ms returns 0x00000000
T48A0 007:457.177 JLINK_ReadReg(FPS1)
T48A0 007:457.181 - 0.003ms returns 0x00000000
T48A0 007:457.186 JLINK_ReadReg(FPS2)
T48A0 007:457.190 - 0.003ms returns 0x00000000
T48A0 007:457.194 JLINK_ReadReg(FPS3)
T48A0 007:457.198 - 0.003ms returns 0x00000000
T48A0 007:457.203 JLINK_ReadReg(FPS4)
T48A0 007:457.206 - 0.003ms returns 0x00000000
T48A0 007:457.211 JLINK_ReadReg(FPS5)
T48A0 007:457.215 - 0.003ms returns 0x00000000
T48A0 007:457.219 JLINK_ReadReg(FPS6)
T48A0 007:457.223 - 0.004ms returns 0x00000000
T48A0 007:457.228 JLINK_ReadReg(FPS7)
T48A0 007:457.232 - 0.003ms returns 0x00000000
T48A0 007:457.236 JLINK_ReadReg(FPS8)
T48A0 007:457.243 - 0.007ms returns 0x00000000
T48A0 007:457.249 JLINK_ReadReg(FPS9)
T48A0 007:457.253 - 0.004ms returns 0x00000000
T48A0 007:457.257 JLINK_ReadReg(FPS10)
T48A0 007:457.261 - 0.003ms returns 0x00000000
T48A0 007:457.265 JLINK_ReadReg(FPS11)
T48A0 007:457.269 - 0.003ms returns 0x00000000
T48A0 007:457.274 JLINK_ReadReg(FPS12)
T48A0 007:457.278 - 0.003ms returns 0x00000000
T48A0 007:457.282 JLINK_ReadReg(FPS13)
T48A0 007:457.286 - 0.003ms returns 0x00000000
T48A0 007:457.291 JLINK_ReadReg(FPS14)
T48A0 007:457.295 - 0.003ms returns 0x00000000
T48A0 007:457.300 JLINK_ReadReg(FPS15)
T48A0 007:457.304 - 0.003ms returns 0x00000000
T48A0 007:457.308 JLINK_ReadReg(FPS16)
T48A0 007:457.312 - 0.003ms returns 0x00000000
T48A0 007:457.317 JLINK_ReadReg(FPS17)
T48A0 007:457.320 - 0.003ms returns 0x00000000
T48A0 007:457.325 JLINK_ReadReg(FPS18)
T48A0 007:457.329 - 0.003ms returns 0x00000000
T48A0 007:457.337 JLINK_ReadReg(FPS19)
T48A0 007:457.341 - 0.004ms returns 0x00000000
T48A0 007:457.345 JLINK_ReadReg(FPS20)
T48A0 007:457.349 - 0.003ms returns 0x00000000
T48A0 007:457.353 JLINK_ReadReg(FPS21)
T48A0 007:457.357 - 0.004ms returns 0x00000000
T48A0 007:457.362 JLINK_ReadReg(FPS22)
T48A0 007:457.366 - 0.003ms returns 0x00000000
T48A0 007:457.371 JLINK_ReadReg(FPS23)
T48A0 007:457.374 - 0.003ms returns 0x00000000
T48A0 007:457.379 JLINK_ReadReg(FPS24)
T48A0 007:457.383 - 0.004ms returns 0x00000000
T48A0 007:457.388 JLINK_ReadReg(FPS25)
T48A0 007:457.392 - 0.003ms returns 0x00000000
T48A0 007:457.396 JLINK_ReadReg(FPS26)
T48A0 007:457.400 - 0.003ms returns 0x00000000
T48A0 007:457.405 JLINK_ReadReg(FPS27)
T48A0 007:457.408 - 0.003ms returns 0x00000000
T48A0 007:457.413 JLINK_ReadReg(FPS28)
T48A0 007:457.417 - 0.004ms returns 0x00000000
T48A0 007:457.421 JLINK_ReadReg(FPS29)
T48A0 007:457.425 - 0.003ms returns 0x00000000
T48A0 007:457.429 JLINK_ReadReg(FPS30)
T48A0 007:457.433 - 0.003ms returns 0x00000000
T48A0 007:457.438 JLINK_ReadReg(FPS31)
T48A0 007:457.441 - 0.003ms returns 0x00000000
T4580 007:457.515 JLINK_HasError()
T4580 007:457.543 JLINK_ReadMemU32(0xE0001004, 0x1 Items)
T4580 007:457.560   CPU_ReadMem(4 bytes @ 0xE0001004)
T4580 007:457.846   Data:  64 F9 00 00
T4580 007:457.855   Debug reg: DWT_CYCCNT
T4580 007:457.861 - 0.318ms returns 1 (0x1)
T4580 007:458.949 JLINK_ReadMem(0x2000000C, 0x4 Bytes, ...)
T4580 007:458.964   CPU_ReadMem(64 bytes @ 0x20000000)
T4580 007:459.601    -- Updating C cache (64 bytes @ 0x20000000)
T4580 007:459.620    -- Read from C cache (4 bytes @ 0x2000000C)
T4580 007:459.633   Data:  00 00 00 00
T4580 007:459.639 - 0.690ms returns 0
T4580 007:459.653 JLINK_ReadMem(0x20000010, 0x4 Bytes, ...)
T4580 007:459.658    -- Read from C cache (4 bytes @ 0x20000010)
T4580 007:459.663   Data:  00 00 00 00
T4580 007:459.668 - 0.014ms returns 0
T4580 007:459.673 JLINK_ReadMem(0x2000000A, 0x2 Bytes, ...)
T4580 007:459.677    -- Read from C cache (2 bytes @ 0x2000000A)
T4580 007:459.681   Data:  00 00
T4580 007:459.686 - 0.013ms returns 0
T48A0 007:921.676 JLINK_ReadMem(0x080105BC, 0x3C Bytes, ...)
T48A0 007:921.734   CPU_ReadMem(128 bytes @ 0x08010580)
T48A0 007:922.868    -- Updating C cache (128 bytes @ 0x08010580)
T48A0 007:922.902    -- Read from C cache (60 bytes @ 0x080105BC)
T48A0 007:922.918   Data:  F6 F7 58 FC F4 F7 F2 FF F4 F7 6C FF F4 F7 B0 FF ...
T48A0 007:922.930 - 1.254ms returns 0
T48A0 007:922.949 JLINK_HasError()
T48A0 007:922.960 JLINK_SetBPEx(Addr = 0x080105C0, Type = 0xFFFFFFF2)
T48A0 007:922.970 - 0.010ms returns 0x00000007
T48A0 007:922.979 JLINK_HasError()
T48A0 007:922.989 JLINK_SetBPEx(Addr = 0x08010904, Type = 0xFFFFFFF2)
T48A0 007:922.997 - 0.008ms returns 0x00000008
T48A0 007:923.005 JLINK_HasError()
T48A0 007:923.014 JLINK_SetBPEx(Addr = 0x08010600, Type = 0xFFFFFFF2)
T48A0 007:923.022 - 0.008ms returns 0x00000009
T48A0 007:923.031 JLINK_HasError()
T48A0 007:923.040 JLINK_HasError()
T48A0 007:923.049 JLINK_Go()
T48A0 007:923.064   CPU_WriteMem(4 bytes @ 0xE0002000)
T48A0 007:923.374   CPU_WriteMem(4 bytes @ 0xE0002000)
T48A0 007:923.781   CPU_WriteMem(4 bytes @ 0xE0002000)
T48A0 007:924.242   CPU_ReadMem(4 bytes @ 0xE0001000)
T48A0 007:924.596   CPU_WriteMem(4 bytes @ 0xE0002008)
T48A0 007:925.561 - 2.511ms 
T48A0 008:025.608 JLINK_HasError()
T48A0 008:025.654 JLINK_IsHalted()
T48A0 008:025.992 - 0.336ms returns FALSE
T48A0 008:126.039 JLINK_HasError()
T48A0 008:126.088 JLINK_IsHalted()
T48A0 008:126.448 - 0.359ms returns FALSE
T48A0 008:226.918 JLINK_HasError()
T48A0 008:226.961 JLINK_IsHalted()
T48A0 008:227.323 - 0.362ms returns FALSE
T48A0 008:327.796 JLINK_HasError()
T48A0 008:327.842 JLINK_IsHalted()
T48A0 008:328.249 - 0.406ms returns FALSE
T48A0 008:429.157 JLINK_HasError()
T48A0 008:429.202 JLINK_IsHalted()
T48A0 008:429.527 - 0.324ms returns FALSE
T48A0 008:530.534 JLINK_HasError()
T48A0 008:530.578 JLINK_HasError()
T48A0 008:530.589 JLINK_ReadMemU32(0xE0001004, 0x1 Items)
T48A0 008:530.625   CPU_ReadMem(4 bytes @ 0xE0001004)
T48A0 008:530.990   Data:  E8 18 95 00
T48A0 008:531.008   Debug reg: DWT_CYCCNT
T48A0 008:531.019 - 0.430ms returns 1 (0x1)
T4580 008:532.245 JLINK_ReadMem(0x2000000C, 0x4 Bytes, ...)
T4580 008:532.270   CPU_ReadMem(4 bytes @ 0x2000000C)
T4580 008:532.571   Data:  00 00 00 00
T4580 008:532.590 - 0.344ms returns 0
T4580 008:532.626 JLINK_ReadMem(0x20000010, 0x4 Bytes, ...)
T4580 008:532.640   CPU_ReadMem(4 bytes @ 0x20000010)
T4580 008:532.949   Data:  00 00 00 00
T4580 008:532.963 - 0.337ms returns 0
T4580 008:532.985 JLINK_ReadMem(0x2000000A, 0x2 Bytes, ...)
T4580 008:532.997   CPU_ReadMem(2 bytes @ 0x2000000A)
T4580 008:533.268   Data:  00 00
T4580 008:533.282 - 0.297ms returns 0
T48A0 008:533.356 JLINK_IsHalted()
T48A0 008:533.665 - 0.308ms returns FALSE
T48A0 008:633.798 JLINK_HasError()
T48A0 008:633.846 JLINK_IsHalted()
T48A0 008:634.250 - 0.403ms returns FALSE
T48A0 008:734.671 JLINK_HasError()
T48A0 008:734.713 JLINK_IsHalted()
T48A0 008:735.256 - 0.542ms returns FALSE
T48A0 008:836.060 JLINK_HasError()
T48A0 008:836.093 JLINK_IsHalted()
T48A0 008:836.386 - 0.293ms returns FALSE
T48A0 008:936.822 JLINK_HasError()
T48A0 008:936.870 JLINK_IsHalted()
T48A0 008:937.237 - 0.366ms returns FALSE
T48A0 009:037.597 JLINK_HasError()
T48A0 009:037.642 JLINK_HasError()
T48A0 009:037.675 JLINK_ReadMemU32(0xE0001004, 0x1 Items)
T48A0 009:037.703   Data:  E8 18 95 00
T48A0 009:037.722   Debug reg: DWT_CYCCNT
T48A0 009:037.739 - 0.064ms returns 1 (0x1)
T4580 009:040.392 JLINK_ReadMem(0x2000000C, 0x4 Bytes, ...)
T4580 009:040.446   CPU_ReadMem(4 bytes @ 0x2000000C)
T4580 009:040.770   Data:  00 00 00 00
T4580 009:040.786 - 0.394ms returns 0
T4580 009:040.814 JLINK_ReadMem(0x20000010, 0x4 Bytes, ...)
T4580 009:040.826   CPU_ReadMem(4 bytes @ 0x20000010)
T4580 009:041.086   Data:  00 00 00 00
T4580 009:041.098 - 0.285ms returns 0
T4580 009:041.114 JLINK_ReadMem(0x2000000A, 0x2 Bytes, ...)
T4580 009:041.122   CPU_ReadMem(2 bytes @ 0x2000000A)
T4580 009:041.439   Data:  00 00
T4580 009:041.450 - 0.336ms returns 0
T48A0 009:041.516 JLINK_IsHalted()
T48A0 009:041.841 - 0.324ms returns FALSE
T48A0 009:141.894 JLINK_HasError()
T48A0 009:141.941 JLINK_IsHalted()
T48A0 009:142.288 - 0.346ms returns FALSE
T48A0 009:242.806 JLINK_HasError()
T48A0 009:242.842 JLINK_IsHalted()
T48A0 009:243.135 - 0.292ms returns FALSE
T48A0 009:343.886 JLINK_HasError()
T48A0 009:343.930 JLINK_IsHalted()
T48A0 009:344.274 - 0.344ms returns FALSE
T48A0 009:444.378 JLINK_HasError()
T48A0 009:444.417 JLINK_IsHalted()
T48A0 009:444.754 - 0.336ms returns FALSE
T48A0 009:545.183 JLINK_HasError()
T48A0 009:545.230 JLINK_IsHalted()
T48A0 009:545.558 - 0.326ms returns FALSE
T48A0 009:646.434 JLINK_HasError()
T48A0 009:646.483 JLINK_HasError()
T48A0 009:646.494 JLINK_ReadMemU32(0xE0001004, 0x1 Items)
T48A0 009:646.518   Data:  E8 18 95 00
T48A0 009:646.530   Debug reg: DWT_CYCCNT
T48A0 009:646.542 - 0.047ms returns 1 (0x1)
T4580 009:648.169 JLINK_ReadMem(0x2000000C, 0x4 Bytes, ...)
T4580 009:648.194   CPU_ReadMem(4 bytes @ 0x2000000C)
T4580 009:648.507   Data:  00 00 00 00
T4580 009:648.518 - 0.349ms returns 0
T4580 009:648.538 JLINK_ReadMem(0x20000010, 0x4 Bytes, ...)
T4580 009:648.546   CPU_ReadMem(4 bytes @ 0x20000010)
T4580 009:648.803   Data:  00 00 00 00
T4580 009:648.813 - 0.274ms returns 0
T4580 009:648.826 JLINK_ReadMem(0x2000000A, 0x2 Bytes, ...)
T4580 009:648.833   CPU_ReadMem(2 bytes @ 0x2000000A)
T4580 009:649.080   Data:  00 00
T4580 009:649.086 - 0.261ms returns 0
T48A0 009:649.132 JLINK_IsHalted()
T48A0 009:649.425 - 0.292ms returns FALSE
T48A0 009:750.515 JLINK_HasError()
T48A0 009:750.559 JLINK_IsHalted()
T48A0 009:750.878 - 0.318ms returns FALSE
T48A0 009:850.940 JLINK_HasError()
T48A0 009:850.986 JLINK_IsHalted()
T48A0 009:851.326 - 0.338ms returns FALSE
T48A0 009:951.362 JLINK_HasError()
T48A0 009:951.419 JLINK_IsHalted()
T48A0 009:951.784 - 0.363ms returns FALSE
T48A0 010:052.217 JLINK_HasError()
T48A0 010:052.265 JLINK_IsHalted()
T48A0 010:052.592 - 0.326ms returns FALSE
T48A0 010:152.640 JLINK_HasError()
T48A0 010:152.686 JLINK_IsHalted()
T48A0 010:152.993 - 0.306ms returns FALSE
T48A0 010:253.501 JLINK_HasError()
T48A0 010:253.544 JLINK_HasError()
T48A0 010:253.552 JLINK_ReadMemU32(0xE0001004, 0x1 Items)
T48A0 010:253.571   Data:  E8 18 95 00
T48A0 010:253.579   Debug reg: DWT_CYCCNT
T48A0 010:253.587 - 0.035ms returns 1 (0x1)
T4580 010:255.435 JLINK_ReadMem(0x2000000C, 0x4 Bytes, ...)
T4580 010:255.460   CPU_ReadMem(4 bytes @ 0x2000000C)
T4580 010:255.798   Data:  00 00 00 00
T4580 010:255.808 - 0.372ms returns 0
T4580 010:255.828 JLINK_ReadMem(0x20000010, 0x4 Bytes, ...)
T4580 010:255.835   CPU_ReadMem(4 bytes @ 0x20000010)
T4580 010:256.111   Data:  00 00 00 00
T4580 010:256.118 - 0.290ms returns 0
T4580 010:256.126 JLINK_ReadMem(0x2000000A, 0x2 Bytes, ...)
T4580 010:256.131   CPU_ReadMem(2 bytes @ 0x2000000A)
T4580 010:256.437   Data:  00 00
T4580 010:256.444 - 0.317ms returns 0
T48A0 010:256.581 JLINK_IsHalted()
T48A0 010:256.888 - 0.307ms returns FALSE
T48A0 010:357.128 JLINK_HasError()
T48A0 010:357.171 JLINK_IsHalted()
T48A0 010:357.519 - 0.347ms returns FALSE
T48A0 010:458.653 JLINK_HasError()
T48A0 010:458.696 JLINK_IsHalted()
T48A0 010:459.014 - 0.317ms returns FALSE
T48A0 010:559.147 JLINK_HasError()
T48A0 010:559.182 JLINK_IsHalted()
T48A0 010:559.522 - 0.338ms returns FALSE
T48A0 010:659.573 JLINK_HasError()
T48A0 010:659.623 JLINK_IsHalted()
T48A0 010:659.955 - 0.332ms returns FALSE
T48A0 010:760.358 JLINK_HasError()
T48A0 010:760.438 JLINK_IsHalted()
T48A0 010:760.927 - 0.487ms returns FALSE
T48A0 010:861.669 JLINK_HasError()
T48A0 010:861.717 JLINK_HasError()
T48A0 010:861.728 JLINK_ReadMemU32(0xE0001004, 0x1 Items)
